* /home/fossee/esim-workspace/astablemultivibratoric555/astablemultivibratoric555.cir
Transient Analysis  Fri May 27 16:43:15  2016
--------------------------------------------------------------------------------
Index   time            a               net-_c2-pad1_   net-_r1-pad1_   
--------------------------------------------------------------------------------
0	0.000000e+00	0.000000e+00	3.326405e+00	5.000000e+00	
1	5.000000e-10	2.284146e-03	3.326405e+00	5.000000e+00	
2	1.000000e-09	4.567244e-03	3.326405e+00	5.000000e+00	
3	2.000000e-09	9.131341e-03	3.326405e+00	5.000000e+00	
4	4.000000e-09	1.824696e-02	3.326405e+00	5.000000e+00	
5	8.000000e-09	3.642803e-02	3.326405e+00	5.000000e+00	
6	1.600000e-08	7.259038e-02	3.326405e+00	5.000000e+00	
7	3.200000e-08	1.441232e-01	3.326405e+00	5.000000e+00	
8	6.400000e-08	2.840789e-01	3.326406e+00	5.000000e+00	
9	1.140000e-07	4.947043e-01	3.326407e+00	5.000000e+00	
10	1.640000e-07	6.958680e-01	3.326409e+00	5.000000e+00	
11	2.140000e-07	8.879950e-01	3.326412e+00	5.000000e+00	
12	2.640000e-07	1.071491e+00	3.326416e+00	5.000000e+00	
13	3.140000e-07	1.246745e+00	3.326420e+00	5.000000e+00	
14	3.640000e-07	1.414125e+00	3.326425e+00	5.000000e+00	
15	4.140000e-07	1.573986e+00	3.326431e+00	5.000000e+00	
16	4.640000e-07	1.726667e+00	3.326437e+00	5.000000e+00	
17	5.140000e-07	1.872488e+00	3.326444e+00	5.000000e+00	
18	5.640000e-07	2.011759e+00	3.326451e+00	5.000000e+00	
19	6.140000e-07	2.144773e+00	3.326459e+00	5.000000e+00	
20	6.640000e-07	2.271813e+00	3.326467e+00	5.000000e+00	
21	7.140000e-07	2.393145e+00	3.326475e+00	5.000000e+00	
22	7.640000e-07	2.509027e+00	3.326485e+00	5.000000e+00	
23	8.140000e-07	2.619703e+00	3.326494e+00	5.000000e+00	
24	8.640000e-07	2.725407e+00	3.326504e+00	5.000000e+00	
25	9.140000e-07	2.826363e+00	3.326514e+00	5.000000e+00	
26	9.640000e-07	2.922784e+00	3.326525e+00	5.000000e+00	
27	1.014000e-06	3.014874e+00	3.326536e+00	5.000000e+00	
28	1.064000e-06	3.102826e+00	3.326547e+00	5.000000e+00	
29	1.114000e-06	3.186828e+00	3.326559e+00	5.000000e+00	
30	1.164000e-06	3.267056e+00	3.326570e+00	5.000000e+00	
31	1.214000e-06	3.343680e+00	3.326583e+00	5.000000e+00	
32	1.215002e-06	3.345179e+00	3.326583e+00	5.000000e+00	
33	1.215102e-06	3.345327e+00	3.326583e+00	5.000000e+00	
34	1.215302e-06	3.345145e+00	3.326583e+00	5.000000e+00	
35	1.215702e-06	3.343825e+00	3.326583e+00	5.000000e+00	
36	1.216002e-06	3.342832e+00	3.326583e+00	5.000000e+00	
37	1.216082e-06	3.342566e+00	3.326583e+00	5.000000e+00	
38	1.216242e-06	3.342036e+00	3.326583e+00	5.000000e+00	
39	1.216562e-06	3.340975e+00	3.326583e+00	5.000000e+00	
40	1.217202e-06	3.338855e+00	3.326583e+00	5.000000e+00	
41	1.218482e-06	3.334619e+00	3.326584e+00	5.000000e+00	
42	1.221042e-06	3.326164e+00	3.326584e+00	5.000000e+00	
43	1.226162e-06	3.309318e+00	3.326586e+00	5.000000e+00	
44	1.236402e-06	3.275886e+00	3.326588e+00	5.000000e+00	
45	1.256882e-06	3.210048e+00	3.326593e+00	5.000000e+00	
46	1.297842e-06	3.082375e+00	3.326602e+00	5.000000e+00	
47	1.347842e-06	2.933505e+00	3.326613e+00	5.000000e+00	
48	1.397842e-06	2.791966e+00	3.326624e+00	5.000000e+00	
49	1.447842e-06	2.657397e+00	3.326634e+00	5.000000e+00	
50	1.497842e-06	2.529455e+00	3.326643e+00	5.000000e+00	
51	1.547842e-06	2.407813e+00	3.326652e+00	5.000000e+00	
52	1.597842e-06	2.292161e+00	3.326660e+00	5.000000e+00	
53	1.647842e-06	2.182205e+00	3.326668e+00	5.000000e+00	
54	1.697842e-06	2.077663e+00	3.326676e+00	5.000000e+00	

Index   time            a               net-_c2-pad1_   net-_r1-pad1_   
--------------------------------------------------------------------------------
55	1.747842e-06	1.978269e+00	3.326683e+00	5.000000e+00	
56	1.797842e-06	1.883770e+00	3.326690e+00	5.000000e+00	
57	1.847842e-06	1.793924e+00	3.326696e+00	5.000000e+00	
58	1.897842e-06	1.708503e+00	3.326702e+00	5.000000e+00	
59	1.947842e-06	1.627288e+00	3.326708e+00	5.000000e+00	
60	1.948844e-06	1.625702e+00	3.326708e+00	5.000000e+00	
61	1.948944e-06	1.625545e+00	3.326708e+00	5.000000e+00	
62	1.949144e-06	1.625229e+00	3.326708e+00	5.000000e+00	
63	1.949544e-06	1.624604e+00	3.326708e+00	5.000000e+00	
64	1.949844e-06	1.624833e+00	3.326708e+00	5.000000e+00	
65	1.949924e-06	1.625079e+00	3.326708e+00	5.000000e+00	
66	1.950084e-06	1.625571e+00	3.326708e+00	5.000000e+00	
67	1.950404e-06	1.626555e+00	3.326708e+00	5.000000e+00	
68	1.951044e-06	1.628523e+00	3.326709e+00	5.000000e+00	
69	1.952324e-06	1.632455e+00	3.326709e+00	5.000000e+00	
70	1.954884e-06	1.640305e+00	3.326709e+00	5.000000e+00	
71	1.960004e-06	1.655950e+00	3.326710e+00	5.000000e+00	
72	1.970244e-06	1.687020e+00	3.326711e+00	5.000000e+00	
73	1.990724e-06	1.748290e+00	3.326713e+00	5.000000e+00	
74	2.031684e-06	1.867435e+00	3.326718e+00	5.000000e+00	
75	2.081684e-06	2.006933e+00	3.326725e+00	5.000000e+00	
76	2.131684e-06	2.140165e+00	3.326732e+00	5.000000e+00	
77	2.181684e-06	2.267411e+00	3.326740e+00	5.000000e+00	
78	2.231684e-06	2.388941e+00	3.326748e+00	5.000000e+00	
79	2.281684e-06	2.505012e+00	3.326757e+00	5.000000e+00	
80	2.331684e-06	2.615869e+00	3.326766e+00	5.000000e+00	
81	2.381684e-06	2.721745e+00	3.326776e+00	5.000000e+00	
82	2.431684e-06	2.822866e+00	3.326785e+00	5.000000e+00	
83	2.481684e-06	2.919444e+00	3.326796e+00	5.000000e+00	
84	2.531684e-06	3.011684e+00	3.326806e+00	5.000000e+00	
85	2.581684e-06	3.099780e+00	3.326817e+00	5.000000e+00	
86	2.631684e-06	3.183918e+00	3.326828e+00	5.000000e+00	
87	2.681684e-06	3.264277e+00	3.326840e+00	5.000000e+00	
88	2.731684e-06	3.341026e+00	3.326851e+00	5.000000e+00	
89	2.732686e-06	3.342528e+00	3.326852e+00	5.000000e+00	
90	2.732786e-06	3.342675e+00	3.326852e+00	5.000000e+00	
91	2.732986e-06	3.342494e+00	3.326852e+00	5.000000e+00	
92	2.733386e-06	3.341176e+00	3.326852e+00	5.000000e+00	
93	2.733686e-06	3.340183e+00	3.326852e+00	5.000000e+00	
94	2.733766e-06	3.339918e+00	3.326852e+00	5.000000e+00	
95	2.733926e-06	3.339388e+00	3.326852e+00	5.000000e+00	
96	2.734246e-06	3.338328e+00	3.326852e+00	5.000000e+00	
97	2.734886e-06	3.336210e+00	3.326852e+00	5.000000e+00	
98	2.736166e-06	3.331977e+00	3.326852e+00	5.000000e+00	
99	2.738726e-06	3.323528e+00	3.326853e+00	5.000000e+00	
100	2.743846e-06	3.306696e+00	3.326854e+00	5.000000e+00	
101	2.754086e-06	3.273291e+00	3.326857e+00	5.000000e+00	
102	2.774566e-06	3.207507e+00	3.326861e+00	5.000000e+00	
103	2.815526e-06	3.079937e+00	3.326870e+00	5.000000e+00	
104	2.865526e-06	2.931187e+00	3.326881e+00	5.000000e+00	
105	2.915526e-06	2.789762e+00	3.326891e+00	5.000000e+00	
106	2.965526e-06	2.655302e+00	3.326900e+00	5.000000e+00	
107	3.015526e-06	2.527463e+00	3.326909e+00	5.000000e+00	
108	3.065526e-06	2.405919e+00	3.326918e+00	5.000000e+00	
109	3.115526e-06	2.290361e+00	3.326926e+00	5.000000e+00	
110	3.165526e-06	2.180493e+00	3.326933e+00	5.000000e+00	
111	3.215526e-06	2.076036e+00	3.326941e+00	5.000000e+00	
112	3.265526e-06	1.976722e+00	3.326947e+00	5.000000e+00	

Index   time            a               net-_c2-pad1_   net-_r1-pad1_   
--------------------------------------------------------------------------------
113	3.315526e-06	1.882299e+00	3.326954e+00	5.000000e+00	
114	3.365526e-06	1.792526e+00	3.326960e+00	5.000000e+00	
115	3.415526e-06	1.707174e+00	3.326966e+00	5.000000e+00	
116	3.465526e-06	1.626024e+00	3.326971e+00	5.000000e+00	
117	3.466528e-06	1.624440e+00	3.326971e+00	5.000000e+00	
118	3.466628e-06	1.624282e+00	3.326971e+00	5.000000e+00	
119	3.466828e-06	1.623967e+00	3.326971e+00	5.000000e+00	
120	3.467228e-06	1.623342e+00	3.326971e+00	5.000000e+00	
121	3.467528e-06	1.623571e+00	3.326971e+00	5.000000e+00	
122	3.467608e-06	1.623818e+00	3.326971e+00	5.000000e+00	
123	3.467768e-06	1.624310e+00	3.326971e+00	5.000000e+00	
124	3.468088e-06	1.625295e+00	3.326971e+00	5.000000e+00	
125	3.468728e-06	1.627263e+00	3.326971e+00	5.000000e+00	
126	3.470008e-06	1.631197e+00	3.326971e+00	5.000000e+00	
127	3.472568e-06	1.639050e+00	3.326972e+00	5.000000e+00	
128	3.477688e-06	1.654700e+00	3.326972e+00	5.000000e+00	
129	3.487928e-06	1.685782e+00	3.326973e+00	5.000000e+00	
130	3.508408e-06	1.747076e+00	3.326976e+00	5.000000e+00	
131	3.549368e-06	1.866266e+00	3.326980e+00	5.000000e+00	
132	3.599368e-06	2.005816e+00	3.326987e+00	5.000000e+00	
133	3.649368e-06	2.139098e+00	3.326994e+00	5.000000e+00	
134	3.699368e-06	2.266392e+00	3.327001e+00	5.000000e+00	
135	3.749368e-06	2.387968e+00	3.327009e+00	5.000000e+00	
136	3.799368e-06	2.504083e+00	3.327017e+00	5.000000e+00	
137	3.849368e-06	2.614981e+00	3.327026e+00	5.000000e+00	
138	3.899368e-06	2.720898e+00	3.327035e+00	5.000000e+00	
139	3.949368e-06	2.822057e+00	3.327044e+00	5.000000e+00	
140	3.999368e-06	2.918671e+00	3.327054e+00	5.000000e+00	
141	4.049368e-06	3.010946e+00	3.327064e+00	5.000000e+00	
142	4.099368e-06	3.099075e+00	3.327075e+00	5.000000e+00	
143	4.149368e-06	3.183245e+00	3.327085e+00	5.000000e+00	
144	4.199368e-06	3.263634e+00	3.327097e+00	5.000000e+00	
145	4.249368e-06	3.340412e+00	3.327108e+00	5.000000e+00	
146	4.250370e-06	3.341915e+00	3.327108e+00	5.000000e+00	
147	4.250470e-06	3.342062e+00	3.327108e+00	5.000000e+00	
148	4.250670e-06	3.341881e+00	3.327108e+00	5.000000e+00	
149	4.251070e-06	3.340563e+00	3.327108e+00	5.000000e+00	
150	4.251370e-06	3.339570e+00	3.327108e+00	5.000000e+00	
151	4.251450e-06	3.339305e+00	3.327108e+00	5.000000e+00	
152	4.251610e-06	3.338775e+00	3.327108e+00	5.000000e+00	
153	4.251930e-06	3.337716e+00	3.327108e+00	5.000000e+00	
154	4.252570e-06	3.335598e+00	3.327109e+00	5.000000e+00	
155	4.253850e-06	3.331366e+00	3.327109e+00	5.000000e+00	
156	4.256410e-06	3.322919e+00	3.327109e+00	5.000000e+00	
157	4.261530e-06	3.306090e+00	3.327111e+00	5.000000e+00	
158	4.271770e-06	3.272691e+00	3.327113e+00	5.000000e+00	
159	4.292250e-06	3.206919e+00	3.327117e+00	5.000000e+00	
160	4.333210e-06	3.079373e+00	3.327126e+00	5.000000e+00	
161	4.383210e-06	2.930651e+00	3.327136e+00	5.000000e+00	
162	4.433210e-06	2.789253e+00	3.327146e+00	5.000000e+00	
163	4.483210e-06	2.654818e+00	3.327155e+00	5.000000e+00	
164	4.533210e-06	2.527003e+00	3.327164e+00	5.000000e+00	
165	4.583210e-06	2.405482e+00	3.327172e+00	5.000000e+00	
166	4.633210e-06	2.289945e+00	3.327179e+00	5.000000e+00	
167	4.683210e-06	2.180098e+00	3.327187e+00	5.000000e+00	
168	4.733210e-06	2.075660e+00	3.327193e+00	5.000000e+00	
169	4.783210e-06	1.976365e+00	3.327200e+00	5.000000e+00	
170	4.833210e-06	1.881960e+00	3.327206e+00	5.000000e+00	

Index   time            a               net-_c2-pad1_   net-_r1-pad1_   
--------------------------------------------------------------------------------
171	4.883210e-06	1.792203e+00	3.327212e+00	5.000000e+00	
172	4.933210e-06	1.706867e+00	3.327217e+00	5.000000e+00	
173	4.983210e-06	1.625733e+00	3.327222e+00	5.000000e+00	
174	4.984212e-06	1.624149e+00	3.327222e+00	5.000000e+00	
175	4.984312e-06	1.623991e+00	3.327222e+00	5.000000e+00	
176	4.984512e-06	1.623676e+00	3.327222e+00	5.000000e+00	
177	4.984912e-06	1.623051e+00	3.327222e+00	5.000000e+00	
178	4.985212e-06	1.623281e+00	3.327222e+00	5.000000e+00	
179	4.985292e-06	1.623527e+00	3.327222e+00	5.000000e+00	
180	4.985452e-06	1.624019e+00	3.327222e+00	5.000000e+00	
181	4.985772e-06	1.625004e+00	3.327222e+00	5.000000e+00	
182	4.986412e-06	1.626973e+00	3.327222e+00	5.000000e+00	
183	4.987692e-06	1.630906e+00	3.327222e+00	5.000000e+00	
184	4.990252e-06	1.638760e+00	3.327223e+00	5.000000e+00	
185	4.995372e-06	1.654412e+00	3.327223e+00	5.000000e+00	
186	5.000000e-06	1.668497e+00	3.327224e+00	5.000000e+00	

* /home/fossee/esim-workspace/astablemultivibratoric555/astablemultivibratoric555.cir
Transient Analysis  Fri May 27 16:43:15  2016
--------------------------------------------------------------------------------
Index   time            net-_r1-pad2_   out             x1.2            
--------------------------------------------------------------------------------
0	0.000000e+00	4.545455e+00	5.000000e+00	2.000000e-01	
1	5.000000e-10	4.545662e+00	5.000000e+00	2.000000e-01	
2	1.000000e-09	4.545870e+00	5.000000e+00	2.000000e-01	
3	2.000000e-09	4.546285e+00	5.000000e+00	2.000000e-01	
4	4.000000e-09	4.547113e+00	5.000000e+00	2.000000e-01	
5	8.000000e-09	4.548766e+00	5.000000e+00	2.000000e-01	
6	1.600000e-08	4.552054e+00	5.000000e+00	2.000000e-01	
7	3.200000e-08	4.558557e+00	5.000000e+00	2.000000e-01	
8	6.400000e-08	4.571280e+00	5.000000e+00	2.000000e-01	
9	1.140000e-07	4.590428e+00	5.000000e+00	2.000000e-01	
10	1.640000e-07	4.608715e+00	5.000000e+00	2.000000e-01	
11	2.140000e-07	4.626181e+00	5.000000e+00	2.000000e-01	
12	2.640000e-07	4.642863e+00	5.000000e+00	2.000000e-01	
13	3.140000e-07	4.658795e+00	5.000000e+00	2.000000e-01	
14	3.640000e-07	4.674011e+00	5.000000e+00	2.000000e-01	
15	4.140000e-07	4.688544e+00	5.000000e+00	2.000000e-01	
16	4.640000e-07	4.702424e+00	5.000000e+00	2.000000e-01	
17	5.140000e-07	4.715681e+00	5.000000e+00	2.000000e-01	
18	5.640000e-07	4.728342e+00	5.000000e+00	2.000000e-01	
19	6.140000e-07	4.740434e+00	5.000000e+00	2.000000e-01	
20	6.640000e-07	4.751983e+00	5.000000e+00	2.000000e-01	
21	7.140000e-07	4.763013e+00	5.000000e+00	2.000000e-01	
22	7.640000e-07	4.773548e+00	5.000000e+00	2.000000e-01	
23	8.140000e-07	4.783609e+00	5.000000e+00	2.000000e-01	
24	8.640000e-07	4.793219e+00	5.000000e+00	2.000000e-01	
25	9.140000e-07	4.802397e+00	5.000000e+00	2.000000e-01	
26	9.640000e-07	4.811162e+00	5.000000e+00	2.000000e-01	
27	1.014000e-06	4.819534e+00	5.000000e+00	2.000000e-01	
28	1.064000e-06	4.827530e+00	5.000000e+00	2.000000e-01	
29	1.114000e-06	4.835166e+00	5.000000e+00	2.000000e-01	
30	1.164000e-06	4.842460e+00	5.000000e+00	2.000000e-01	
31	1.214000e-06	4.849425e+00	5.000000e+00	2.000000e-01	
32	1.215002e-06	4.849562e+00	5.000000e+00	2.000000e-01	
33	1.215102e-06	4.826123e+00	4.520000e+00	6.796131e-01	
34	1.215302e-06	6.607867e-02	3.560000e+00	8.215192e-01	
35	1.215702e-06	4.186906e-02	1.640000e+00	8.303176e-01	
36	1.216002e-06	3.574514e-02	2.000000e-01	8.353555e-01	
37	1.216082e-06	3.574513e-02	2.000000e-01	8.353555e-01	
38	1.216242e-06	3.574550e-02	2.000000e-01	8.353553e-01	
39	1.216562e-06	3.574524e-02	2.000000e-01	8.353550e-01	
40	1.217202e-06	3.574471e-02	2.000000e-01	8.353545e-01	
41	1.218482e-06	3.574366e-02	2.000000e-01	8.353535e-01	
42	1.221042e-06	3.574156e-02	2.000000e-01	8.353515e-01	
43	1.226162e-06	3.573739e-02	2.000000e-01	8.353475e-01	
44	1.236402e-06	3.572909e-02	2.000000e-01	8.353396e-01	
45	1.256882e-06	3.571275e-02	2.000000e-01	8.353240e-01	
46	1.297842e-06	3.568103e-02	2.000000e-01	8.352937e-01	
47	1.347842e-06	3.564401e-02	2.000000e-01	8.352583e-01	
48	1.397842e-06	3.560876e-02	2.000000e-01	8.352246e-01	
49	1.447842e-06	3.557520e-02	2.000000e-01	8.351925e-01	
50	1.497842e-06	3.554326e-02	2.000000e-01	8.351620e-01	
51	1.547842e-06	3.551287e-02	2.000000e-01	8.351329e-01	
52	1.597842e-06	3.548393e-02	2.000000e-01	8.351053e-01	
53	1.647842e-06	3.545640e-02	2.000000e-01	8.350789e-01	
54	1.697842e-06	3.543019e-02	2.000000e-01	8.350539e-01	

Index   time            net-_r1-pad2_   out             x1.2            
--------------------------------------------------------------------------------
55	1.747842e-06	3.540526e-02	2.000000e-01	8.350300e-01	
56	1.797842e-06	3.538153e-02	2.000000e-01	8.350073e-01	
57	1.847842e-06	3.535895e-02	2.000000e-01	8.349857e-01	
58	1.897842e-06	3.533747e-02	2.000000e-01	8.349652e-01	
59	1.947842e-06	3.531703e-02	2.000000e-01	8.349457e-01	
60	1.948844e-06	3.531663e-02	2.000000e-01	8.349453e-01	
61	1.948944e-06	3.693676e-02	6.800000e-01	8.333474e-01	
62	1.949144e-06	4.132782e-02	1.640000e+00	8.298207e-01	
63	1.949544e-06	6.529242e-02	3.560000e+00	8.208152e-01	
64	1.949844e-06	4.693167e+00	5.000000e+00	2.000000e-01	
65	1.949924e-06	4.693189e+00	5.000000e+00	2.000000e-01	
66	1.950084e-06	4.693234e+00	5.000000e+00	2.000000e-01	
67	1.950404e-06	4.693323e+00	5.000000e+00	2.000000e-01	
68	1.951044e-06	4.693502e+00	5.000000e+00	2.000000e-01	
69	1.952324e-06	4.693860e+00	5.000000e+00	2.000000e-01	
70	1.954884e-06	4.694573e+00	5.000000e+00	2.000000e-01	
71	1.960004e-06	4.695995e+00	5.000000e+00	2.000000e-01	
72	1.970244e-06	4.698820e+00	5.000000e+00	2.000000e-01	
73	1.990724e-06	4.704390e+00	5.000000e+00	2.000000e-01	
74	2.031684e-06	4.715221e+00	5.000000e+00	2.000000e-01	
75	2.081684e-06	4.727903e+00	5.000000e+00	2.000000e-01	
76	2.131684e-06	4.740015e+00	5.000000e+00	2.000000e-01	
77	2.181684e-06	4.751583e+00	5.000000e+00	2.000000e-01	
78	2.231684e-06	4.762631e+00	5.000000e+00	2.000000e-01	
79	2.281684e-06	4.773183e+00	5.000000e+00	2.000000e-01	
80	2.331684e-06	4.783261e+00	5.000000e+00	2.000000e-01	
81	2.381684e-06	4.792886e+00	5.000000e+00	2.000000e-01	
82	2.431684e-06	4.802079e+00	5.000000e+00	2.000000e-01	
83	2.481684e-06	4.810859e+00	5.000000e+00	2.000000e-01	
84	2.531684e-06	4.819244e+00	5.000000e+00	2.000000e-01	
85	2.581684e-06	4.827253e+00	5.000000e+00	2.000000e-01	
86	2.631684e-06	4.834902e+00	5.000000e+00	2.000000e-01	
87	2.681684e-06	4.842207e+00	5.000000e+00	2.000000e-01	
88	2.731684e-06	4.849184e+00	5.000000e+00	2.000000e-01	
89	2.732686e-06	4.849321e+00	5.000000e+00	2.000000e-01	
90	2.732786e-06	4.825882e+00	4.520000e+00	6.796131e-01	
91	2.732986e-06	6.607743e-02	3.560000e+00	8.215181e-01	
92	2.733386e-06	4.186826e-02	1.640000e+00	8.303168e-01	
93	2.733686e-06	3.574449e-02	2.000000e-01	8.353549e-01	
94	2.733766e-06	3.574448e-02	2.000000e-01	8.353548e-01	
95	2.733926e-06	3.574484e-02	2.000000e-01	8.353547e-01	
96	2.734246e-06	3.574458e-02	2.000000e-01	8.353544e-01	
97	2.734886e-06	3.574406e-02	2.000000e-01	8.353539e-01	
98	2.736166e-06	3.574301e-02	2.000000e-01	8.353529e-01	
99	2.738726e-06	3.574091e-02	2.000000e-01	8.353509e-01	
100	2.743846e-06	3.573674e-02	2.000000e-01	8.353469e-01	
101	2.754086e-06	3.572845e-02	2.000000e-01	8.353390e-01	
102	2.774566e-06	3.571212e-02	2.000000e-01	8.353234e-01	
103	2.815526e-06	3.568043e-02	2.000000e-01	8.352931e-01	
104	2.865526e-06	3.564343e-02	2.000000e-01	8.352577e-01	
105	2.915526e-06	3.560821e-02	2.000000e-01	8.352241e-01	
106	2.965526e-06	3.557468e-02	2.000000e-01	8.351920e-01	
107	3.015526e-06	3.554277e-02	2.000000e-01	8.351615e-01	
108	3.065526e-06	3.551239e-02	2.000000e-01	8.351325e-01	
109	3.115526e-06	3.548348e-02	2.000000e-01	8.351048e-01	
110	3.165526e-06	3.545597e-02	2.000000e-01	8.350785e-01	
111	3.215526e-06	3.542979e-02	2.000000e-01	8.350535e-01	
112	3.265526e-06	3.540487e-02	2.000000e-01	8.350297e-01	

Index   time            net-_r1-pad2_   out             x1.2            
--------------------------------------------------------------------------------
113	3.315526e-06	3.538116e-02	2.000000e-01	8.350070e-01	
114	3.365526e-06	3.535860e-02	2.000000e-01	8.349854e-01	
115	3.415526e-06	3.533713e-02	2.000000e-01	8.349649e-01	
116	3.465526e-06	3.531671e-02	2.000000e-01	8.349453e-01	
117	3.466528e-06	3.531631e-02	2.000000e-01	8.349450e-01	
118	3.466628e-06	3.693643e-02	6.800000e-01	8.333471e-01	
119	3.466828e-06	4.132743e-02	1.640000e+00	8.298203e-01	
120	3.467228e-06	6.529182e-02	3.560000e+00	8.208147e-01	
121	3.467528e-06	4.693052e+00	5.000000e+00	2.000000e-01	
122	3.467608e-06	4.693074e+00	5.000000e+00	2.000000e-01	
123	3.467768e-06	4.693119e+00	5.000000e+00	2.000000e-01	
124	3.468088e-06	4.693209e+00	5.000000e+00	2.000000e-01	
125	3.468728e-06	4.693388e+00	5.000000e+00	2.000000e-01	
126	3.470008e-06	4.693745e+00	5.000000e+00	2.000000e-01	
127	3.472568e-06	4.694459e+00	5.000000e+00	2.000000e-01	
128	3.477688e-06	4.695882e+00	5.000000e+00	2.000000e-01	
129	3.487928e-06	4.698707e+00	5.000000e+00	2.000000e-01	
130	3.508408e-06	4.704280e+00	5.000000e+00	2.000000e-01	
131	3.549368e-06	4.715115e+00	5.000000e+00	2.000000e-01	
132	3.599368e-06	4.727801e+00	5.000000e+00	2.000000e-01	
133	3.649368e-06	4.739918e+00	5.000000e+00	2.000000e-01	
134	3.699368e-06	4.751490e+00	5.000000e+00	2.000000e-01	
135	3.749368e-06	4.762543e+00	5.000000e+00	2.000000e-01	
136	3.799368e-06	4.773098e+00	5.000000e+00	2.000000e-01	
137	3.849368e-06	4.783180e+00	5.000000e+00	2.000000e-01	
138	3.899368e-06	4.792809e+00	5.000000e+00	2.000000e-01	
139	3.949368e-06	4.802005e+00	5.000000e+00	2.000000e-01	
140	3.999368e-06	4.810788e+00	5.000000e+00	2.000000e-01	
